! Created with skrf 1.8.0 (http://scikit-rf.org).
# GHz S RI R 50.0 
!freq ReS11 ImS11 ReS21 ImS21 ReS12 ImS12 ReS22 ImS22
0.001 0.0 0.0 0.9999599954321475 -0.008944693138367743 0.9999599954321475 -0.008944693138367743 0.0 0.0
0.0029999 0.0 0.0 0.999640002093077 -0.026830322684474214 0.999640002093077 -0.026830322684474214 0.0 0.0
0.0049998 0.0 0.0 0.9990001258126695 -0.044707366577226126 0.9990001258126695 -0.044707366577226126 0.0 0.0
0.0069997 0.0 0.0 0.9980405713501446 -0.06257010419582912 0.9980405713501446 -0.06257010419582912 0.0 0.0
0.0089996 0.0 0.0 0.9967616457611455 -0.08041281949746999 0.9967616457611455 -0.08041281949746999 0.0 0.0
0.0109995 0.0 0.0 0.9951637582994819 -0.09822980284643974 0.9951637582994819 -0.09822980284643974 0.0 0.0
0.0129994 0.0 0.0 0.9932474202861694 -0.11601535284120625 0.9932474202861694 -0.11601535284120625 0.0 0.0
0.0149993 0.0 0.0 0.9910132449458079 -0.13376377813885243 0.9910132449458079 -0.13376377813885243 0.0 0.0
0.0169992 0.0 0.0 0.9884619472103507 -0.15146939927629513 0.9884619472103507 -0.15146939927629513 0.0 0.0
0.0189991 0.0 0.0 0.9855943434903279 -0.16912655048770284 0.9855943434903279 -0.16912655048770284 0.0 0.0
0.020999 0.0 0.0 0.982411351413596 -0.18672958151753033 0.982411351413596 -0.18672958151753033 0.0 0.0
0.0229989 0.0 0.0 0.9789139895316992 -0.2042728594285896 0.9789139895316992 -0.2042728594285896 0.0 0.0
0.0249988 0.0 0.0 0.9751033769939346 -0.22175077040457983 0.9751033769939346 -0.22175077040457983 0.0 0.0
0.0269987 0.0 0.0 0.9709807331892265 -0.23915772154649748 0.9709807331892265 -0.23915772154649748 0.0 0.0
0.0289986 0.0 0.0 0.9665473773559244 -0.2564881426623542 0.9665473773559244 -0.2564881426623542 0.0 0.0
0.0309985 0.0 0.0 0.9618047281596489 -0.27373648804962747 0.9618047281596489 -0.27373648804962747 0.0 0.0
0.0329984 0.0 0.0 0.9567543032393214 -0.2908972382698754 0.9567543032393214 -0.2908972382698754 0.0 0.0
0.0349983 0.0 0.0 0.9513977187215226 -0.30796490191494663 0.9513977187215226 -0.30796490191494663 0.0 0.0
0.0369982 0.0 0.0 0.9457366887033348 -0.3249340173642205 0.9457366887033348 -0.3249340173642205 0.0 0.0
0.0389981 0.0 0.0 0.9397730247038346 -0.3417991545323158 0.9397730247038346 -0.3417991545323158 0.0 0.0
0.040998 0.0 0.0 0.9335086350844092 -0.3585549166067081 0.9335086350844092 -0.3585549166067081 0.0 0.0
0.0429979 0.0 0.0 0.9269455244380851 -0.3751959417746992 0.9269455244380851 -0.3751959417746992 0.0 0.0
0.0449978 0.0 0.0 0.9200857929480617 -0.3917169049391877 0.9200857929480617 -0.3917169049391877 0.0 0.0
0.0469977 0.0 0.0 0.9129316357156566 -0.40811251942269017 0.9129316357156566 -0.40811251942269017 0.0 0.0
0.0489976 0.0 0.0 0.9054853420578777 -0.4243775386590675 0.9054853420578777 -0.4243775386590675 0.0 0.0
0.0509975 0.0 0.0 0.897749294774845 -0.4405067578724173 0.897749294774845 -0.4405067578724173 0.0 0.0
0.0529974 0.0 0.0 0.8897259693873003 -0.45649501574259144 0.8897259693873003 -0.45649501574259144 0.0 0.0
0.0549973 0.0 0.0 0.8814179333444441 -0.47233719605680974 0.8814179333444441 -0.47233719605680974 0.0 0.0
0.0569972 0.0 0.0 0.872827845202357 -0.4880282293468383 0.872827845202357 -0.4880282293468383 0.0 0.0
0.0589971 0.0 0.0 0.8639584537732672 -0.5035630945112094 0.8639584537732672 -0.5035630945112094 0.0 0.0
0.060997 0.0 0.0 0.8548125972459346 -0.5189368204219658 0.8548125972459346 -0.5189368204219658 0.0 0.0
0.0629969 0.0 0.0 0.845393202277437 -0.5341444875154104 0.845393202277437 -0.5341444875154104 0.0 0.0
0.0649968 0.0 0.0 0.8357032830566439 -0.5491812293663605 0.8357032830566439 -0.5491812293663605 0.0 0.0
0.0669967 0.0 0.0 0.8257459403396826 -0.5640422342453917 0.8257459403396826 -0.5640422342453917 0.0 0.0
0.0689966 0.0 0.0 0.8155243604577022 -0.5787227466585843 0.8155243604577022 -0.5787227466585843 0.0 0.0
0.0709965 0.0 0.0 0.8050418142972525 -0.5932180688692716 0.8050418142972525 -0.5932180688692716 0.0 0.0
0.0729964 0.0 0.0 0.7943016562536076 -0.6075235624013079 0.7943016562536076 -0.6075235624013079 0.0 0.0
0.0749963 0.0 0.0 0.7833073231573644 -0.621634649523371 0.7833073231573644 -0.621634649523371 0.0 0.0
0.0769962 0.0 0.0 0.7720623331746643 -0.6355468147138287 0.7720623331746643 -0.6355468147138287 0.0 0.0
0.0789961 0.0 0.0 0.7605702846813861 -0.6492556061056964 0.7605702846813861 -0.6492556061056964 0.0 0.0
0.080996 0.0 0.0 0.7488348551116724 -0.6627566369112274 0.7488348551116724 -0.6627566369112274 0.0 0.0
0.0829959 0.0 0.0 0.7368597997811577 -0.6760455868256757 0.7368597997811577 -0.6760455868256757 0.0 0.0
0.0849958 0.0 0.0 0.7246489506852738 -0.6891182034097862 0.7246489506852738 -0.6891182034097862 0.0 0.0
0.0869957 0.0 0.0 0.7122062152730195 -0.7019703034505671 0.7122062152730195 -0.7019703034505671 0.0 0.0
0.0889956 0.0 0.0 0.6995355751965833 -0.7145977742999102 0.6995355751965833 -0.7145977742999102 0.0 0.0
0.0909955 0.0 0.0 0.6866410850372217 -0.7269965751906311 0.6866410850372217 -0.7269965751906311 0.0 0.0
0.0929954 0.0 0.0 0.6735268710078024 -0.7391627385295062 0.6735268710078024 -0.7391627385295062 0.0 0.0
0.0949953 0.0 0.0 0.6601971296324223 -0.7510923711668962 0.6601971296324223 -0.7510923711668962 0.0 0.0
0.0969952 0.0 0.0 0.646656126403528 -0.7627816556425465 0.646656126403528 -0.7627816556425465 0.0 0.0
0.0989951 0.0 0.0 0.6329081944169666 -0.774226851407167 0.6329081944169666 -0.774226851407167 0.0 0.0
0.100995 0.0 0.0 0.6189577329854022 -0.7854242960194009 0.6189577329854022 -0.7854242960194009 0.0 0.0
0.1029949 0.0 0.0 0.6048092062305456 -0.7963704063177997 0.6048092062305456 -0.7963704063177997 0.0 0.0
0.1049948 0.0 0.0 0.5904671416546418 -0.8070616795674276 0.5904671416546418 -0.8070616795674276 0.0 0.0
0.1069947 0.0 0.0 0.5759361286916787 -0.8174946945807307 0.5759361286916787 -0.8174946945807307 0.0 0.0
0.1089946 0.0 0.0 0.5612208172387768 -0.82766611281231 0.5612208172387768 -0.82766611281231 0.0 0.0
0.1109945 0.0 0.0 0.5463259161682308 -0.8375726794272502 0.5463259161682308 -0.8375726794272502 0.0 0.0
0.1129944 0.0 0.0 0.5312561918206783 -0.847211224342661 0.5312561918206783 -0.847211224342661 0.0 0.0
0.1149943 0.0 0.0 0.5160164664798811 -0.856578663242097 0.5160164664798811 -0.856578663242097 0.0 0.0
0.1169942 0.0 0.0 0.500611616829602 -0.865671998562534 0.500611616829602 -0.865671998562534 0.0 0.0
0.1189941 0.0 0.0 0.48504657239307625 -0.8744883204535829 0.48504657239307625 -0.8744883204535829 0.0 0.0
0.120994 0.0 0.0 0.46932631395557267 -0.8830248077086369 0.46932631395557267 -0.8830248077086369 0.0 0.0
0.1229939 0.0 0.0 0.45345587197055137 -0.8912787286676525 0.45345587197055137 -0.8912787286676525 0.0 0.0
0.1249938 0.0 0.0 0.4374403249499283 -0.899247442091275 0.4374403249499283 -0.899247442091275 0.0 0.0
0.1269937 0.0 0.0 0.42128479783896156 -0.9069283980060308 0.42128479783896156 -0.9069283980060308 0.0 0.0
0.1289936 0.0 0.0 0.4049944603762768 -0.9143191385203135 0.4049944603762768 -0.9143191385203135 0.0 0.0
0.1309935 0.0 0.0 0.38857452543956256 -0.9214172986109056 0.38857452543956256 -0.9214172986109056 0.0 0.0
0.1329934 0.0 0.0 0.372030247377457 -0.9282206068797806 0.372030247377457 -0.9282206068797806 0.0 0.0
0.1349933 0.0 0.0 0.35536692032816797 -0.9347268862809465 0.35536692032816797 -0.9347268862809465 0.0 0.0
0.1369932 0.0 0.0 0.33858987652535705 -0.9409340548170969 0.33858987652535705 -0.9409340548170969 0.0 0.0
0.1389931 0.0 0.0 0.32170448459183626 -0.9468401262058452 0.32170448459183626 -0.9468401262058452 0.0 0.0
0.140993 0.0 0.0 0.30471614782161693 -0.9524432105153328 0.30471614782161693 -0.9524432105153328 0.0 0.0
0.1429929 0.0 0.0 0.2876303024508677 -0.9577415147690019 0.2876303024508677 -0.9577415147690019 0.0 0.0
0.1449928 0.0 0.0 0.27045241591832697 -0.9627333435193466 0.27045241591832697 -0.9627333435193466 0.0 0.0
0.1469927 0.0 0.0 0.253187985115735 -0.9674170993904513 0.253187985115735 -0.9674170993904513 0.0 0.0
0.1489926 0.0 0.0 0.23584253462883556 -0.9717912835891493 0.23584253462883556 -0.9717912835891493 0.0 0.0
0.1509925 0.0 0.0 0.21842161496952303 -0.9758544963846328 0.21842161496952303 -0.9758544963846328 0.0 0.0
0.1529924 0.0 0.0 0.20093080079968498 -0.979605437556365 0.20093080079968498 -0.979605437556365 0.0 0.0
0.1549923 0.0 0.0 0.1833756891473228 -0.9830429068101475 0.1833756891473228 -0.9830429068101475 0.0 0.0
0.1569922 0.0 0.0 0.1657618976155127 -0.986165804162213 0.1657618976155127 -0.986165804162213 0.0 0.0
0.1589921 0.0 0.0 0.14809506258478292 -0.9889731302912174 0.14809506258478292 -0.9889731302912174 0.0 0.0
0.160992 0.0 0.0 0.13038083740948342 -0.991463986858021 0.13038083740948342 -0.991463986858021 0.0 0.0
0.1629919 0.0 0.0 0.11262489060872112 -0.9936375767931553 0.11262489060872112 -0.9936375767931553 0.0 0.0
0.1649918 0.0 0.0 0.09483290405244703 -0.9954932045518841 0.09483290405244703 -0.9954932045518841 0.0 0.0
0.1669917 0.0 0.0 0.0770105711432656 -0.9970302763367761 0.0770105711432656 -0.9970302763367761 0.0 0.0
0.1689916 0.0 0.0 0.05916359499455815 -0.9982483002877189 0.05916359499455815 -0.9982483002877189 0.0 0.0
0.1709915 0.0 0.0 0.04129768660549666 -0.999146886639314 0.04129768660549666 -0.999146886639314 0.0 0.0
0.1729914 0.0 0.0 0.023418563033535424 -0.9997257478456001 0.023418563033535424 -0.9997257478456001 0.0 0.0
0.1749913 0.0 0.0 0.0055319455649620415 -0.9999846986720679 0.0055319455649620415 -0.9999846986720679 0.0 0.0
0.1769912 0.0 0.0 -0.012356442115902918 -0.9999236562549345 -0.012356442115902918 -0.9999236562549345 0.0 0.0
0.1789911 0.0 0.0 -0.030240875758273358 -0.9995426401276599 -0.030240875758273358 -0.9995426401276599 0.0 0.0
0.180991 0.0 0.0 -0.04811563237665014 -0.9988417722146962 -0.04811563237665014 -0.9988417722146962 0.0 0.0
0.1829909 0.0 0.0 -0.06597499208216091 -0.9978212767924719 -0.06597499208216091 -0.9978212767924719 0.0 0.0
0.1849908 0.0 0.0 -0.08381323991291927 -0.996481480417624 -0.08381323991291927 -0.996481480417624 0.0 0.0
0.1869907 0.0 0.0 -0.10162466766279808 -0.9948228118225003 -0.10162466766279808 -0.9948228118225003 0.0 0.0
0.1889906 0.0 0.0 -0.11940357570804694 -0.9928458017779663 -0.11940357570804694 -0.9928458017779663 0.0 0.0
0.1909905 0.0 0.0 -0.13714427483116015 -0.9905510829235589 -0.13714427483116015 -0.9905510829235589 0.0 0.0
0.1929904 0.0 0.0 -0.15484108804141652 -0.9879393895650432 -0.15484108804141652 -0.9879393895650432 0.0 0.0
0.1949903 0.0 0.0 -0.17248835239150398 -0.9850115574394365 -0.17248835239150398 -0.9850115574394365 0.0 0.0
0.1969902 0.0 0.0 -0.19008042078965492 -0.981768523447573 -0.19008042078965492 -0.981768523447573 0.0 0.0
0.1989901 0.0 0.0 -0.2076116638067032 -0.9782113253542981 -0.2076116638067032 -0.9782113253542981 0.0 0.0
0.20099 0.0 0.0 -0.22507647147749152 -0.9743411014563852 -0.22507647147749152 -0.9743411014563852 0.0 0.0
0.2029899 0.0 0.0 -0.24246925509605005 -0.9701590902182831 -0.24246925509605005 -0.9701590902182831 0.0 0.0
0.2049898 0.0 0.0 -0.259784449003971 -0.9656666298758092 -0.259784449003971 -0.9656666298758092 0.0 0.0
0.2069897 0.0 0.0 -0.27701651237141084 -0.9608651580079174 -0.27701651237141084 -0.9608651580079174 0.0 0.0
0.2089896 0.0 0.0 -0.29415993097014276 -0.9557562110766745 -0.29415993097014276 -0.9557562110766745 0.0 0.0
0.2109895 0.0 0.0 -0.3112092189381024 -0.9503414239355961 -0.3112092189381024 -0.9503414239355961 0.0 0.0
0.2129894 0.0 0.0 -0.32815892053485174 -0.9446225293064955 -0.32815892053485174 -0.9446225293064955 0.0 0.0
0.2149893 0.0 0.0 -0.3450036118874065 -0.9386013572250169 -0.3450036118874065 -0.9386013572250169 0.0 0.0
0.2169892 0.0 0.0 -0.36173790272586465 -0.9322798344550272 -0.36173790272586465 -0.9322798344550272 0.0 0.0
0.2189891 0.0 0.0 -0.3783564381082839 -0.9256599838720546 -0.3783564381082839 -0.9256599838720546 0.0 0.0
0.220989 0.0 0.0 -0.39485390013425237 -0.9187439238159727 -0.39485390013425237 -0.9187439238159727 0.0 0.0
0.2229889 0.0 0.0 -0.4112250096466071 -0.9115338674131356 -0.4112250096466071 -0.9115338674131356 0.0 0.0
0.2249888 0.0 0.0 -0.42746452792075457 -0.9040321218681814 -0.42746452792075457 -0.9040321218681814 0.0 0.0
0.2269887 0.0 0.0 -0.44356725834105226 -0.8962410877257314 -0.44356725834105226 -0.8962410877257314 0.0 0.0
0.2289886 0.0 0.0 -0.4595280480637174 -0.8881632581022195 -0.4595280480637174 -0.8881632581022195 0.0 0.0
0.2309885 0.0 0.0 -0.475341789665725 -0.879801217888101 -0.475341789665725 -0.879801217888101 0.0 0.0
0.2329884 0.0 0.0 -0.49100342277917686 -0.8711576429206903 -0.49100342277917686 -0.8711576429206903 0.0 0.0
0.2349883 0.0 0.0 -0.5065079357106065 -0.8622352991279005 -0.5065079357106065 -0.8622352991279005 0.0 0.0
0.2369882 0.0 0.0 -0.5218503670447148 -0.8530370416431496 -0.5218503670447148 -0.8530370416431496 0.0 0.0
0.2389881 0.0 0.0 -0.5370258072320115 -0.8435658138917238 -0.5370258072320115 -0.8435658138917238 0.0 0.0
0.240988 0.0 0.0 -0.5520294001598635 -0.833824646648887 -0.5520294001598635 -0.833824646648887 0.0 0.0
0.2429879 0.0 0.0 -0.5668563447064402 -0.8238166570700385 -0.5668563447064402 -0.8238166570700385 0.0 0.0
0.2449878 0.0 0.0 -0.5815018962770651 -0.8135450476932286 -0.5815018962770651 -0.8135450476932286 0.0 0.0
0.2469877 0.0 0.0 -0.5959613683224765 -0.8030131054143521 -0.5959613683224765 -0.8030131054143521 0.0 0.0
0.2489876 0.0 0.0 -0.610230133838514 -0.7922242004353498 -0.610230133838514 -0.7922242004353498 0.0 0.0
0.2509875 0.0 0.0 -0.6243036268467527 -0.781181785185747 -0.6243036268467527 -0.781181785185747 0.0 0.0
0.2529874 0.0 0.0 -0.6381773438556066 -0.7698893932178847 -0.6381773438556066 -0.7698893932178847 0.0 0.0
0.2549873 0.0 0.0 -0.6518468453014382 -0.758350638076189 -0.6518468453014382 -0.758350638076189 0.0 0.0
0.2569872 0.0 0.0 -0.6653077569692106 -0.7465692121408422 -0.6653077569692106 -0.7465692121408422 0.0 0.0
0.2589871 0.0 0.0 -0.6785557713922262 -0.7345488854462314 -0.6785557713922262 -0.7345488854462314 0.0 0.0
0.260987 0.0 0.0 -0.6915866492305114 -0.7222935044745408 -0.6915866492305114 -0.7222935044745408 0.0 0.0
0.2629869 0.0 0.0 -0.704396220627396 -0.7098069909248858 -0.704396220627396 -0.7098069909248858 0.0 0.0
0.2649868 0.0 0.0 -0.7169803865438584 -0.6970933404583775 -0.7169803865438584 -0.6970933404583775 0.0 0.0
0.2669867 0.0 0.0 -0.7293351200702127 -0.684156621419517 -0.7293351200702127 -0.684156621419517 0.0 0.0
0.2689866 0.0 0.0 -0.741456467714709 -0.6710009735343361 -0.741456467714709 -0.6710009735343361 0.0 0.0
0.2709865 0.0 0.0 -0.7533405506686474 -0.6576306065856874 -0.7533405506686474 -0.6576306065856874 0.0 0.0
0.2729864 0.0 0.0 -0.764983566047587 -0.6440497990661259 -0.764983566047587 -0.6440497990661259 0.0 0.0
0.2749863 0.0 0.0 -0.7763817881082629 -0.6302628968087971 -0.7763817881082629 -0.6302628968087971 0.0 0.0
0.2769862 0.0 0.0 -0.7875315694408159 -0.6162743115967803 -0.7875315694408159 -0.6162743115967803 0.0 0.0
0.2789861 0.0 0.0 -0.7984293421359584 -0.6020885197513242 -0.7984293421359584 -0.6020885197513242 0.0 0.0
0.280986 0.0 0.0 -0.8090716189266979 -0.5877100606994338 -0.8090716189266979 -0.5877100606994338 0.0 0.0
0.2829859 0.0 0.0 -0.8194549943042561 -0.5731435355212616 -0.8194549943042561 -0.5731435355212616 0.0 0.0
0.2849858 0.0 0.0 -0.8295761456078251 -0.5583936054777711 -0.8295761456078251 -0.5583936054777711 0.0 0.0
0.2869857 0.0 0.0 -0.8394318340878132 -0.543464990519141 -0.8394318340878132 -0.543464990519141 0.0 0.0
0.2889856 0.0 0.0 -0.8490189059422385 -0.528362467774391 -0.8490189059422385 -0.528362467774391 0.0 0.0
0.2909855 0.0 0.0 -0.8583342933259394 -0.5130908700227087 -0.8583342933259394 -0.5130908700227087 0.0 0.0
0.2929854 0.0 0.0 -0.8673750153322801 -0.497655084146969 -0.8673750153322801 -0.497655084146969 0.0 0.0
0.2949853 0.0 0.0 -0.8761381789470338 -0.4820600495699423 -0.8761381789470338 -0.4820600495699423 0.0 0.0
0.2969852 0.0 0.0 -0.8846209799741437 -0.4663107566736861 -0.8846209799741437 -0.4663107566736861 0.0 0.0
0.2989851 0.0 0.0 -0.8928207039330589 -0.4504122452026334 -0.8928207039330589 -0.4504122452026334 0.0 0.0
0.300985 0.0 0.0 -0.9007347269273644 -0.4343696026508833 -0.9007347269273644 -0.4343696026508833 0.0 0.0
0.3029849 0.0 0.0 -0.9083605164844217 -0.4181879626342138 -0.9083605164844217 -0.4181879626342138 0.0 0.0
0.3049848 0.0 0.0 -0.9156956323657567 -0.40187250324733204 -0.9156956323657567 -0.40187250324733204 0.0 0.0
0.3069847 0.0 0.0 -0.9227377273479308 -0.3854284454068949 -0.9227377273479308 -0.3854284454068949 0.0 0.0
0.3089846 0.0 0.0 -0.9294845479736479 -0.3688610511808254 -0.9294845479736479 -0.3688610511808254 0.0 0.0
0.3109845 0.0 0.0 -0.9359339352728571 -0.35217562210446 -0.9359339352728571 -0.35217562210446 0.0 0.0
0.3129844 0.0 0.0 -0.9420838254536181 -0.3353774974840692 -0.9420838254536181 -0.3353774974840692 0.0 0.0
0.3149843 0.0 0.0 -0.9479322505625122 -0.3184720526882864 -0.9479322505625122 -0.3184720526882864 0.0 0.0
0.3169842 0.0 0.0 -0.9534773391143825 -0.3014646974280021 -0.9534773391143825 -0.3014646974280021 0.0 0.0
0.3189841 0.0 0.0 -0.9587173166912065 -0.2843608740252655 -0.9587173166912065 -0.2843608740252655 0.0 0.0
0.320984 0.0 0.0 -0.9636505065099057 -0.2671660556717531 -0.9636505065099057 -0.2671660556717531 0.0 0.0
0.3229839 0.0 0.0 -0.9682753299589139 -0.2498857446773553 -0.9682753299589139 -0.2498857446773553 0.0 0.0
0.3249838 0.0 0.0 -0.9725903071033297 -0.23252547070944882 -0.9725903071033297 -0.23252547070944882 0.0 0.0
0.3269837 0.0 0.0 -0.9765940571584929 -0.21509078902341278 -0.9765940571584929 -0.21509078902341278 0.0 0.0
0.3289836 0.0 0.0 -0.9802852989318326 -0.1975872786849591 -0.9802852989318326 -0.1975872786849591 0.0 0.0
0.3309835 0.0 0.0 -0.983662851232847 -0.18002054078483903 -0.983662851232847 -0.18002054078483903 0.0 0.0
0.3329834 0.0 0.0 -0.9867256332510822 -0.16239619664650645 -0.9867256332510822 -0.16239619664650645 0.0 0.0
0.3349833 0.0 0.0 -0.9894726649019892 -0.14471988602730432 -0.9894726649019892 -0.14471988602730432 0.0 0.0
0.3369832 0.0 0.0 -0.9919030671405489 -0.12699726531375277 -0.9919030671405489 -0.12699726531375277 0.0 0.0
0.3389831 0.0 0.0 -0.9940160622425658 -0.10923400571151604 -0.9940160622425658 -0.10923400571151604 0.0 0.0
0.340983 0.0 0.0 -0.9958109740535374 -0.09143579143062713 -0.9958109740535374 -0.09143579143062713 0.0 0.0
0.3429829 0.0 0.0 -0.9972872282050226 -0.07360831786655123 -0.9972872282050226 -0.07360831786655123 0.0 0.0
0.3449828 0.0 0.0 -0.9984443522984389 -0.05575728977766877 -0.9984443522984389 -0.05575728977766877 0.0 0.0
0.3469827 0.0 0.0 -0.9992819760562285 -0.03788841945976705 -0.9992819760562285 -0.03788841945976705 0.0 0.0
0.3489826 0.0 0.0 -0.9997998314403469 -0.020007424918110753 -0.9997998314403469 -0.020007424918110753 0.0 0.0
0.3509825 0.0 0.0 -0.9999977527380346 -0.0021200280376945197 -0.9999977527380346 -0.0021200280376945197 0.0 0.0
0.3529824 0.0 0.0 -0.9998756766148443 0.01576804724775052 -0.9998756766148443 0.01576804724775052 0.0 0.0
0.3549823 0.0 0.0 -0.9994336421349084 0.03365107678740533 -0.9994336421349084 0.03365107678740533 0.0 0.0
0.3569822 0.0 0.0 -0.9986717907484383 0.051523338045078804 -0.9986717907484383 0.051523338045078804 0.0 0.0
0.3589821 0.0 0.0 -0.9975903662464606 0.0693791119304114 -0.9975903662464606 0.0693791119304114 0.0 0.0
0.360982 0.0 0.0 -0.9961897146828046 0.08721268462897155 -0.9961897146828046 0.08721268462897155 0.0 0.0
0.3629819 0.0 0.0 -0.9944702842633651 0.10501834943066714 -0.9944702842633651 0.10501834943066714 0.0 0.0
0.3649818 0.0 0.0 -0.9924326252026786 0.12279040855587842 -0.9924326252026786 0.12279040855587842 0.0 0.0
0.3669817 0.0 0.0 -0.9900773895478544 0.14052317497874225 -0.9900773895478544 0.14052317497874225 0.0 0.0
0.3689816 0.0 0.0 -0.9874053309699211 0.15821097424698632 -0.9874053309699211 0.15821097424698632 0.0 0.0
0.3709815 0.0 0.0 -0.9844173045226536 0.17584814629774462 -0.9844173045226536 0.17584814629774462 0.0 0.0
0.3729814 0.0 0.0 -0.9811142663689576 0.19342904726876514 -0.9811142663689576 0.19342904726876514 0.0 0.0
0.3749813 0.0 0.0 -0.9774972734748983 0.21094805130443772 -0.9774972734748983 0.21094805130443772 0.0 0.0
