! Created with skrf 1.10.0 (http://scikit-rf.org).
# Hz S RI R 50.0 
!freq ReS11 ImS11
!
6250000000.0 7.267139e-06 9.941003e-05
6251250000.0 2.90178e-05 9.737748e-05
6252500000.0 6.430064e-05 7.923821e-05
6253750000.0 9.092821e-05 5.043282e-05
6255000000.0 0.0001041503 1.833599e-05
6256250000.0 0.0001033898 -1.898526e-05
6257500000.0 9.326776e-05 -5.403782e-05
6258750000.0 7.317011e-05 -7.982775e-05
6260000000.0 4.362056e-05 -9.769395e-05
6261250000.0 6.475231e-06 -0.000110179
6262500000.0 -2.70769e-05 -0.0001050019
6263750000.0 -6.394237e-05 -8.855958e-05
6265000000.0 -9.15324e-05 -6.497934e-05
6266250000.0 -0.0001014539 -2.903979e-05
6267500000.0 -0.0001054171 6.606815e-06
6268750000.0 -9.665286e-05 4.225794e-05
6270000000.0 -7.413495e-05 7.346798e-05
6271250000.0 -4.513397e-05 9.195034e-05
6272500000.0 -1.153411e-05 0.0001013253
6273750000.0 2.492402e-05 9.852645e-05
6275000000.0 6.338075e-05 8.090581e-05
6276250000.0 8.49933e-05 5.70421e-05
6277500000.0 9.826685e-05 2.573308e-05
6278750000.0 0.0001000852 -1.553665e-05
6280000000.0 9.277317e-05 -4.457617e-05
6281250000.0 6.931296e-05 -7.501728e-05
6282500000.0 4.163342e-05 -9.638004e-05
6283750000.0 7.827623e-06 -0.0001068891
6285000000.0 -2.810295e-05 -0.0001032392
6286250000.0 -6.221097e-05 -8.675407e-05
6287500000.0 -8.915742e-05 -5.955968e-05
6288750000.0 -0.0001000269 -2.666775e-05
6290000000.0 -0.0001075071 8.371139e-06
6291250000.0 -9.380822e-05 4.44786e-05
6292500000.0 -7.387304e-05 7.283691e-05
6293750000.0 -4.578115e-05 9.508689e-05
6295000000.0 -1.204201e-05 0.0001058336
6296250000.0 2.626357e-05 0.000101424
6297500000.0 5.73965e-05 8.544561e-05
6298750000.0 8.420261e-05 5.782493e-05
6300000000.0 9.740295e-05 2.783466e-05
6301250000.0 0.0001016597 -1.105647e-05
6302500000.0 9.409463e-05 -4.46845e-05
6303750000.0 7.474438e-05 -7.455631e-05
6305000000.0 4.208755e-05 -9.525454e-05
6306250000.0 7.808459e-06 -0.0001091536
6307500000.0 -2.678733e-05 -0.000107558
6308750000.0 -6.672294e-05 -9.164511e-05
6310000000.0 -9.279813e-05 -6.710289e-05
6311250000.0 -0.00011011 -2.744356e-05
6312500000.0 -0.0001178672 1.036672e-05
6313750000.0 -0.0001031021 4.586019e-05
6315000000.0 -8.327644e-05 8.033954e-05
6316250000.0 -5.410842e-05 0.0001003188
6317500000.0 -1.553597e-05 0.0001110803
6318750000.0 2.438562e-05 0.000110879
6320000000.0 6.058748e-05 9.646876e-05
6321250000.0 9.470645e-05 7.131986e-05
6322500000.0 0.0001096915 3.266228e-05
6323750000.0 0.0001147292 -7.923843e-06
6325000000.0 0.0001030741 -5.152949e-05
6326250000.0 8.423261e-05 -8.453033e-05
6327500000.0 4.986e-05 -0.0001069174
6328750000.0 7.553338e-06 -0.0001232401
6330000000.0 -3.433594e-05 -0.0001178492
6331250000.0 -7.651446e-05 -9.653485e-05
6332500000.0 -0.0001071255 -6.834623e-05
6333750000.0 -0.0001222282 -2.752156e-05
6335000000.0 -0.000123707 1.676922e-05
6336250000.0 -0.0001134004 5.486926e-05
6337500000.0 -8.670779e-05 8.994359e-05
6338750000.0 -5.054913e-05 0.0001134664
6340000000.0 -1.124862e-05 0.0001244184
6341250000.0 3.198976e-05 0.0001155951
6342500000.0 6.900014e-05 0.0001008632
6343750000.0 9.967445e-05 6.489058e-05
6345000000.0 0.0001157953 2.902845e-05
6346250000.0 0.0001151838 -1.523159e-05
6347500000.0 0.0001036418 -5.267176e-05
6348750000.0 8.112766e-05 -8.514885e-05
6350000000.0 4.592935e-05 -0.0001098833
6351250000.0 4.591193e-06 -0.0001187232
6352500000.0 -3.617985e-05 -0.0001117078
6353750000.0 -6.795969e-05 -9.713636e-05
6355000000.0 -0.0001031734 -6.523447e-05
6356250000.0 -0.0001152458 -3.00994e-05
6357500000.0 -0.000119404 1.100519e-05
6358750000.0 -0.0001120729 4.674536e-05
6360000000.0 -8.788847e-05 8.226174e-05
6361250000.0 -5.425579e-05 0.0001071878
6362500000.0 -1.453958e-05 0.0001150521
6363750000.0 2.291538e-05 0.0001144589
6365000000.0 5.822779e-05 9.71464e-05
6366250000.0 8.6067e-05 6.982974e-05
6367500000.0 0.0001089531 3.811973e-05
6368750000.0 0.0001116909 2.612606e-06
6370000000.0 0.0001060692 -4.044491e-05
6371250000.0 8.404289e-05 -7.369023e-05
6372500000.0 5.326866e-05 -9.833035e-05
6373750000.0 1.736944e-05 -0.0001093953
6375000000.0 -2.037496e-05 -0.0001099113
6376250000.0 -5.413535e-05 -9.878744e-05
6377500000.0 -8.796531e-05 -7.436303e-05
6378750000.0 -0.000109647 -3.985956e-05
6380000000.0 -0.0001145101 -4.69404e-06
6381250000.0 -0.0001058123 3.228713e-05
6382500000.0 -8.901168e-05 6.900343e-05
6383750000.0 -6.284549e-05 9.382024e-05
6385000000.0 -2.669726e-05 0.000104028
6386250000.0 5.481189e-06 0.0001075445
6387500000.0 4.278502e-05 9.53017e-05
6388750000.0 6.987408e-05 7.52394e-05
6390000000.0 8.970618e-05 4.868732e-05
6391250000.0 0.0001009201 1.518159e-05
6392500000.0 9.861404e-05 -1.987682e-05
6393750000.0 8.346191e-05 -5.098434e-05
6395000000.0 6.322547e-05 -7.882449e-05
6396250000.0 3.110262e-05 -9.488225e-05
6397500000.0 -5.23404e-06 -9.804618e-05
6398750000.0 -3.369316e-05 -9.218077e-05
6400000000.0 -6.286446e-05 -7.613786e-05
6401250000.0 -8.215605e-05 -4.950228e-05
6402500000.0 -9.622909e-05 -1.883886e-05
6403750000.0 -9.765331e-05 7.498539e-06
6405000000.0 -9.204208e-05 4.429069e-05
6406250000.0 -7.06377e-05 6.970532e-05
6407500000.0 -4.592788e-05 8.880202e-05
6408750000.0 -1.415351e-05 0.0001007597
6410000000.0 1.705692e-05 9.492093e-05
6411250000.0 4.587631e-05 8.646819e-05
6412500000.0 7.042618e-05 6.061072e-05
6413750000.0 8.390357e-05 3.515464e-05
6415000000.0 9.158251e-05 4.096869e-06
6416250000.0 8.643013e-05 -2.567942e-05
6417500000.0 7.020892e-05 -5.480769e-05
6418750000.0 4.760452e-05 -7.642453e-05
6420000000.0 1.655012e-05 -8.733734e-05
6421250000.0 -1.586729e-05 -8.943342e-05
6422500000.0 -4.402511e-05 -7.63466e-05
6423750000.0 -7.027404e-05 -5.844991e-05
6425000000.0 -8.78205e-05 -3.395897e-05
6426250000.0 -9.190424e-05 -3.385984e-06
6427500000.0 -9.365971e-05 2.666059e-05
6428750000.0 -8.036592e-05 5.66557e-05
6430000000.0 -5.447123e-05 7.531761e-05
6431250000.0 -2.781593e-05 9.283791e-05
6432500000.0 6.654775e-07 9.64135e-05
6433750000.0 3.141477e-05 8.837147e-05
6435000000.0 5.709404e-05 7.363795e-05
6436250000.0 7.766751e-05 4.595233e-05
6437500000.0 8.643133e-05 1.639215e-05
6438750000.0 8.744727e-05 -1.472124e-05
6440000000.0 7.803468e-05 -4.255741e-05
6441250000.0 5.179297e-05 -6.504912e-05
6442500000.0 2.719634e-05 -7.844669e-05
6443750000.0 -4.124636e-06 -8.418087e-05
6445000000.0 -3.327148e-05 -7.968945e-05
6446250000.0 -6.293908e-05 -6.172693e-05
6447500000.0 -7.82748e-05 -3.728142e-05
6448750000.0 -9.311414e-05 -8.936272e-06
6450000000.0 -9.066019e-05 2.05316e-05
6451250000.0 -8.144095e-05 4.889979e-05
6452500000.0 -6.308415e-05 7.405486e-05
6453750000.0 -3.329342e-05 8.825612e-05
6455000000.0 -2.058605e-06 9.359757e-05
6456250000.0 2.628836e-05 8.800331e-05
6457500000.0 5.628597e-05 7.074846e-05
6458750000.0 7.261453e-05 4.8777e-05
6460000000.0 8.424283e-05 2.386699e-05
6461250000.0 8.482996e-05 -1.219282e-05
6462500000.0 7.534098e-05 -4.026552e-05
6463750000.0 5.121523e-05 -6.43216e-05
6465000000.0 2.812853e-05 -7.889619e-05
6466250000.0 -4.590793e-06 -8.658566e-05
6467500000.0 -3.413145e-05 -7.999126e-05
6468750000.0 -6.35607e-05 -6.678037e-05
6470000000.0 -8.3706e-05 -4.086042e-05
6471250000.0 -9.265729e-05 -7.190194e-06
6472500000.0 -9.242545e-05 2.202176e-05
6473750000.0 -8.28325e-05 5.383344e-05
6475000000.0 -6.104859e-05 7.506774e-05
6476250000.0 -3.394327e-05 9.458182e-05
6477500000.0 -4.280146e-06 9.303873e-05
6478750000.0 2.971411e-05 8.889713e-05
6480000000.0 5.749706e-05 7.207474e-05
6481250000.0 7.528748e-05 4.658393e-05
6482500000.0 8.313714e-05 1.696958e-05
6483750000.0 8.265472e-05 -1.658564e-05
6485000000.0 6.874309e-05 -4.803916e-05
6486250000.0 4.607268e-05 -7.067953e-05
6487500000.0 2.130322e-05 -8.496794e-05
6488750000.0 -1.61118e-05 -8.987296e-05
6490000000.0 -4.462082e-05 -7.985334e-05
6491250000.0 -7.160783e-05 -6.229369e-05
6492500000.0 -9.10176e-05 -3.556749e-05
6493750000.0 -9.542001e-05 -4.353201e-06
6495000000.0 -9.638916e-05 2.647971e-05
6496250000.0 -8.297784e-05 6.037721e-05
6497500000.0 -5.897692e-05 8.134473e-05
6498750000.0 -2.960135e-05 9.393881e-05
6500000000.0 -1.061113e-06 9.743577e-05
6501250000.0 3.464151e-05 9.066994e-05
6502500000.0 6.041617e-05 6.677884e-05
6503750000.0 7.57158e-05 4.529705e-05
6505000000.0 8.629131e-05 1.512128e-05
6506250000.0 8.981474e-05 -2.074388e-05
6507500000.0 7.245661e-05 -5.151092e-05
6508750000.0 5.038701e-05 -7.363394e-05
6510000000.0 2.057698e-05 -8.799828e-05
6511250000.0 -1.148042e-05 -9.377515e-05
6512500000.0 -4.680381e-05 -8.760421e-05
6513750000.0 -7.388581e-05 -6.821845e-05
6515000000.0 -9.324824e-05 -3.758006e-05
6516250000.0 -0.0001030522 -5.145699e-06
6517500000.0 -0.0001034061 2.885835e-05
6518750000.0 -9.534689e-05 5.776835e-05
6520000000.0 -6.87725e-05 8.41934e-05
6521250000.0 -4.086281e-05 0.0001013036
6522500000.0 -2.639234e-06 0.0001021467
6523750000.0 3.395739e-05 9.70227e-05
6525000000.0 5.994988e-05 7.855638e-05
6526250000.0 8.642797e-05 5.097271e-05
6527500000.0 9.687432e-05 1.924536e-05
6528750000.0 9.208861e-05 -1.835408e-05
6530000000.0 8.159919e-05 -5.159893e-05
6531250000.0 5.877395e-05 -7.95564e-05
6532500000.0 2.772234e-05 -9.738007e-05
6533750000.0 -1.019668e-05 -0.0001054923
6535000000.0 -4.529149e-05 -9.747429e-05
6536250000.0 -7.64107e-05 -8.092239e-05
6537500000.0 -0.0001014116 -5.287432e-05
6538750000.0 -0.0001151254 -1.894849e-05
6540000000.0 -0.0001152942 1.798304e-05
6541250000.0 -0.0001045159 5.675727e-05
6542500000.0 -8.045122e-05 8.211271e-05
6543750000.0 -5.156774e-05 0.0001022046
6545000000.0 -1.427511e-05 0.0001125977
6546250000.0 2.342539e-05 0.0001108937
6547500000.0 5.681804e-05 9.006014e-05
6548750000.0 8.366246e-05 6.513784e-05
6550000000.0 9.974657e-05 3.065432e-05
6551250000.0 0.0001042417 -5.493616e-06
6552500000.0 9.497586e-05 -4.271424e-05
6553750000.0 7.501023e-05 -7.700586e-05
6555000000.0 4.314094e-05 -9.730962e-05
6556250000.0 4.052283e-06 -0.0001128255
6557500000.0 -3.271121e-05 -0.0001129986
6558750000.0 -6.866178e-05 -9.818408e-05
6560000000.0 -9.78797e-05 -7.424574e-05
6561250000.0 -0.0001156058 -3.933916e-05
6562500000.0 -0.000125105 4.708347e-06
6563750000.0 -0.0001190723 4.230042e-05
6565000000.0 -9.957561e-05 7.452497e-05
6566250000.0 -6.668103e-05 0.0001033639
6567500000.0 -3.574257e-05 0.000117356
6568750000.0 1.090511e-05 0.0001177763
6570000000.0 4.68719e-05 0.0001040173
6571250000.0 8.142678e-05 8.32526e-05
6572500000.0 0.0001038683 4.611378e-05
6573750000.0 0.0001120067 8.089174e-06
6575000000.0 0.0001073836 -3.257668e-05
6576250000.0 8.790725e-05 -7.131029e-05
6577500000.0 5.784634e-05 -0.0001029427
6578750000.0 2.59036e-05 -0.0001175501
6580000000.0 -1.442907e-05 -0.0001203495
6581250000.0 -5.315697e-05 -0.000108886
6582500000.0 -8.757964e-05 -8.534102e-05
6583750000.0 -0.0001168873 -5.407293e-05
6585000000.0 -0.0001225062 -1.249888e-05
6586250000.0 -0.0001248969 2.32103e-05
6587500000.0 -0.0001091799 6.11705e-05
6588750000.0 -8.227793e-05 9.116749e-05
6590000000.0 -4.940243e-05 0.0001105438
6591250000.0 -8.987871e-06 0.0001211642
6592500000.0 3.174555e-05 0.0001103288
6593750000.0 6.577584e-05 9.09043e-05
6595000000.0 9.237253e-05 6.616011e-05
6596250000.0 0.0001105473 1.966996e-05
6597500000.0 0.0001077119 -1.506769e-05
6598750000.0 9.707487e-05 -5.545004e-05
6600000000.0 7.259081e-05 -8.751184e-05
6601250000.0 4.000845e-05 -0.0001114883
6602500000.0 1.294225e-06 -0.000120449
6603750000.0 -3.538789e-05 -0.0001119292
6605000000.0 -7.440218e-05 -9.955699e-05
6606250000.0 -0.0001048659 -7.18872e-05
6607500000.0 -0.0001175363 -3.356041e-05
6608750000.0 -0.0001225403 3.693371e-06
6610000000.0 -0.0001147321 4.255083e-05
6611250000.0 -9.119623e-05 7.138218e-05
6612500000.0 -5.734606e-05 9.911683e-05
6613750000.0 -1.741452e-05 0.0001104366
6615000000.0 1.554625e-05 0.0001073521
6616250000.0 5.250303e-05 9.249794e-05
6617500000.0 8.049332e-05 6.625096e-05
6618750000.0 0.0001014207 3.071427e-05
6620000000.0 0.000103546 -7.707033e-06
6621250000.0 0.0001031657 -4.279986e-05
6622500000.0 7.71816e-05 -6.940679e-05
6623750000.0 4.978253e-05 -9.496289e-05
6625000000.0 1.419126e-05 -0.0001102495
6626250000.0 -2.265231e-05 -0.000108257
6627500000.0 -5.618276e-05 -9.662739e-05
6628750000.0 -8.469058e-05 -7.337289e-05
6630000000.0 -9.91304e-05 -3.899102e-05
6631250000.0 -0.00010839 -6.817874e-06
6632500000.0 -0.0001041006 2.574186e-05
6633750000.0 -8.508344e-05 5.944774e-05
6635000000.0 -5.714915e-05 7.658469e-05
6636250000.0 -3.001002e-05 9.247765e-05
6637500000.0 6.943202e-06 9.417129e-05
6638750000.0 3.734591e-05 8.387282e-05
6640000000.0 6.532916e-05 6.126857e-05
6641250000.0 7.853789e-05 3.369647e-05
6642500000.0 9.272383e-05 -2.434417e-06
6643750000.0 9.032585e-05 -3.210715e-05
6645000000.0 7.219159e-05 -6.002986e-05
6646250000.0 4.982119e-05 -8.640475e-05
6647500000.0 2.12528e-05 -9.421256e-05
6648750000.0 -1.428346e-05 -9.748794e-05
6650000000.0 -4.388861e-05 -8.880541e-05
6651250000.0 -7.077732e-05 -7.182791e-05
6652500000.0 -8.478361e-05 -4.684189e-05
6653750000.0 -9.464678e-05 -1.54375e-05
6655000000.0 -9.259896e-05 1.234674e-05
6656250000.0 -7.693891e-05 4.400848e-05
6657500000.0 -5.560011e-05 7.131408e-05
6658750000.0 -2.720332e-05 7.934673e-05
6660000000.0 4.842666e-06 7.943669e-05
6661250000.0 3.279258e-05 6.986684e-05
6662500000.0 5.679591e-05 5.753159e-05
6663750000.0 7.291891e-05 2.734708e-05
6665000000.0 8.213154e-05 6.398432e-07
6666250000.0 8.103334e-05 -2.598739e-05
6667500000.0 6.614294e-05 -5.276952e-05
6668750000.0 4.814739e-05 -7.398544e-05
6670000000.0 2.112556e-05 -8.57781e-05
6671250000.0 -5.451851e-06 -9.064959e-05
6672500000.0 -3.41554e-05 -8.402621e-05
6673750000.0 -5.88395e-05 -6.735433e-05
6675000000.0 -7.581388e-05 -4.336123e-05
6676250000.0 -8.532748e-05 -1.703427e-05
6677500000.0 -8.157705e-05 1.655168e-05
6678750000.0 -6.686441e-05 3.763928e-05
6680000000.0 -4.911455e-05 5.514695e-05
6681250000.0 -2.125391e-05 6.93458e-05
6682500000.0 3.665056e-06 7.212217e-05
6683750000.0 3.027045e-05 6.473603e-05
6685000000.0 5.506401e-05 5.120023e-05
6686250000.0 7.376004e-05 2.800061e-05
6687500000.0 7.820441e-05 2.972758e-06
6688750000.0 7.900392e-05 -2.703104e-05
6690000000.0 6.817083e-05 -5.348747e-05
6691250000.0 4.815932e-05 -7.126722e-05
6692500000.0 2.237467e-05 -8.50787e-05
6693750000.0 -4.952391e-06 -8.851619e-05
6695000000.0 -3.240574e-05 -8.223853e-05
6696250000.0 -5.636753e-05 -6.369613e-05
6697500000.0 -7.098334e-05 -4.093039e-05
6698750000.0 -7.740763e-05 -1.528174e-05
6700000000.0 -7.585167e-05 1.038531e-05
6701250000.0 -6.422411e-05 3.787112e-05
6702500000.0 -4.780703e-05 5.841313e-05
6703750000.0 -2.076052e-05 7.186123e-05
6705000000.0 7.50484e-06 7.553551e-05
6706250000.0 3.803172e-05 6.680601e-05
6707500000.0 6.191147e-05 5.618888e-05
6708750000.0 7.539501e-05 2.66255e-05
6710000000.0 8.773903e-05 4.4464e-06
6711250000.0 8.681281e-05 -2.829897e-05
6712500000.0 7.142615e-05 -5.389589e-05
6713750000.0 5.286209e-05 -7.34443e-05
6715000000.0 2.546414e-05 -8.770663e-05
6716250000.0 -4.095039e-06 -9.117672e-05
6717500000.0 -2.830379e-05 -8.763358e-05
6718750000.0 -5.877909e-05 -7.554967e-05
6720000000.0 -7.338573e-05 -4.770818e-05
6721250000.0 -9.07703e-05 -2.139795e-05
6722500000.0 -8.559493e-05 1.07811e-05
6723750000.0 -7.281522e-05 4.121418e-05
6725000000.0 -5.378068e-05 6.404658e-05
6726250000.0 -2.823865e-05 8.027999e-05
6727500000.0 7.587274e-06 8.846564e-05
6728750000.0 3.848143e-05 8.10532e-05
6730000000.0 6.711714e-05 7.056333e-05
6731250000.0 9.112324e-05 4.154482e-05
6732500000.0 0.0001059444 8.218623e-06
6733750000.0 0.0001030373 -2.328914e-05
6735000000.0 9.389602e-05 -5.631082e-05
6736250000.0 7.177921e-05 -8.545479e-05
6737500000.0 4.063915e-05 -0.0001069971
6738750000.0 4.785734e-06 -0.0001126635
6740000000.0 -3.10731e-05 -0.0001085987
6741250000.0 -6.219811e-05 -8.756539e-05
6742500000.0 -8.87253e-05 -6.327904e-05
6743750000.0 -0.0001015529 -2.480935e-05
6745000000.0 -0.0001016239 1.572187e-05
6746250000.0 -8.939885e-05 4.872852e-05
6747500000.0 -6.673347e-05 7.846843e-05
6748750000.0 -3.361714e-05 0.000101283
6750000000.0 4.735425e-06 0.000109158
