! Created with skrf 1.10.0 (http://scikit-rf.org).
# Hz S RI R 50.0 
!freq ReS11 ImS11
!
6250000000.0 2.536199e-05 -0.0001201928
6251250000.0 -6.254519e-05 -0.0001048387
6252500000.0 -9.154496e-05 -7.432421e-05
6253750000.0 -0.0001119236 -3.901802e-05
6255000000.0 -0.0001138624 -3.665254e-06
6256250000.0 -0.0001043982 3.798455e-05
6257500000.0 -9.162532e-05 6.868527e-05
6258750000.0 -5.782638e-05 9.627899e-05
6260000000.0 -2.123347e-05 0.0001059677
6261250000.0 1.779754e-05 0.0001084601
6262500000.0 5.278196e-05 9.557704e-05
6263750000.0 8.261255e-05 6.937253e-05
6265000000.0 0.0001084117 3.839165e-05
6266250000.0 0.0001130823 6.008684e-07
6267500000.0 0.0001080419 -3.895489e-05
6268750000.0 9.124698e-05 -7.352662e-05
6270000000.0 6.078118e-05 -9.711127e-05
6271250000.0 2.340688e-05 -0.0001170149
6272500000.0 -1.84911e-05 -0.000114667
6273750000.0 -5.19506e-05 -0.0001056338
6275000000.0 -8.064769e-05 -8.365038e-05
6276250000.0 -9.98131e-05 -5.315398e-05
6277500000.0 -0.0001148974 -1.014515e-05
6278750000.0 -0.0001106615 2.735531e-05
6280000000.0 -9.414109e-05 6.098488e-05
6281250000.0 -6.979455e-05 8.606978e-05
6282500000.0 -3.446541e-05 0.0001026735
6283750000.0 2.202259e-07 0.0001115386
6285000000.0 3.912026e-05 0.0001008362
6286250000.0 7.189313e-05 8.018665e-05
6287500000.0 9.68737e-05 5.18337e-05
6288750000.0 0.0001070251 2.018149e-05
6290000000.0 0.0001042764 -2.186657e-05
6291250000.0 9.454104e-05 -5.434917e-05
6292500000.0 6.91626e-05 -8.532203e-05
6293750000.0 3.539104e-05 -0.0001042116
6295000000.0 -1.411826e-06 -0.0001097681
6296250000.0 -3.372365e-05 -0.000104374
6297500000.0 -6.703783e-05 -9.146326e-05
6298750000.0 -9.279786e-05 -5.985736e-05
6300000000.0 -0.0001083657 -2.50207e-05
6301250000.0 -0.0001081171 1.009507e-05
6302500000.0 -9.473546e-05 4.563891e-05
6303750000.0 -7.968814e-05 7.630409e-05
6305000000.0 -5.046554e-05 9.601391e-05
6306250000.0 -1.778688e-05 0.0001031872
6307500000.0 2.198406e-05 0.0001034797
6308750000.0 4.770529e-05 8.67222e-05
6310000000.0 7.542581e-05 6.420727e-05
6311250000.0 9.709519e-05 3.396373e-05
6312500000.0 0.0001019733 -2.158175e-06
6313750000.0 9.338951e-05 -3.444474e-05
6315000000.0 7.954726e-05 -6.699694e-05
6316250000.0 4.910089e-05 -8.956852e-05
6317500000.0 1.581345e-05 -0.0001018491
6318750000.0 -1.694406e-05 -0.0001020361
6320000000.0 -4.98741e-05 -9.192939e-05
6321250000.0 -8.182537e-05 -6.973031e-05
6322500000.0 -9.800786e-05 -4.206346e-05
6323750000.0 -0.0001052109 -4.532265e-06
6325000000.0 -0.000104044 2.854721e-05
6326250000.0 -8.682327e-05 6.219628e-05
6327500000.0 -5.936506e-05 8.73039e-05
6328750000.0 -2.827163e-05 9.789673e-05
6330000000.0 6.963676e-06 0.0001007066
6331250000.0 4.066199e-05 9.118018e-05
6332500000.0 6.75779e-05 6.814731e-05
6333750000.0 8.661524e-05 4.148616e-05
6335000000.0 9.339473e-05 9.979831e-06
6336250000.0 9.151697e-05 -2.381861e-05
6337500000.0 7.863189e-05 -5.883371e-05
6338750000.0 5.426887e-05 -8.221483e-05
6340000000.0 2.074902e-05 -9.412548e-05
6341250000.0 -1.008311e-05 -9.813158e-05
6342500000.0 -4.000687e-05 -8.889859e-05
6343750000.0 -6.51236e-05 -7.196984e-05
6345000000.0 -8.725913e-05 -4.410664e-05
6346250000.0 -9.685354e-05 -1.33836e-05
6347500000.0 -9.239236e-05 1.933053e-05
6348750000.0 -8.323754e-05 5.056398e-05
6350000000.0 -6.219187e-05 7.795582e-05
6351250000.0 -3.240118e-05 8.59305e-05
6352500000.0 -1.136175e-06 9.209708e-05
6353750000.0 2.627065e-05 8.787556e-05
6355000000.0 5.473581e-05 6.880698e-05
6356250000.0 7.509881e-05 4.956635e-05
6357500000.0 8.671494e-05 1.968739e-05
6358750000.0 8.897884e-05 -1.427951e-05
6360000000.0 7.872129e-05 -4.438507e-05
6361250000.0 5.976373e-05 -6.640646e-05
6362500000.0 3.505322e-05 -7.973107e-05
6363750000.0 -2.458697e-08 -9.271719e-05
6365000000.0 -3.070093e-05 -8.471387e-05
6366250000.0 -5.660974e-05 -7.482086e-05
6367500000.0 -7.69523e-05 -5.037591e-05
6368750000.0 -9.283608e-05 -2.059857e-05
6370000000.0 -9.35733e-05 1.04425e-05
6371250000.0 -8.425314e-05 4.423521e-05
6372500000.0 -6.614456e-05 6.724267e-05
6373750000.0 -4.134076e-05 8.605143e-05
6375000000.0 -8.681736e-06 9.379654e-05
6376250000.0 2.44463e-05 9.011011e-05
6377500000.0 5.289194e-05 7.583417e-05
6378750000.0 8.05954e-05 5.157514e-05
6380000000.0 9.397707e-05 2.256265e-05
6381250000.0 9.419328e-05 -1.085184e-05
6382500000.0 8.340169e-05 -4.276868e-05
6383750000.0 6.508215e-05 -6.811973e-05
6385000000.0 3.46492e-05 -8.406891e-05
6386250000.0 2.590747e-06 -9.18656e-05
6387500000.0 -3.081668e-05 -9.108234e-05
6388750000.0 -5.939353e-05 -7.545775e-05
6390000000.0 -8.123791e-05 -5.122178e-05
6391250000.0 -9.894281e-05 -2.211553e-05
6392500000.0 -0.0001000887 1.656858e-05
6393750000.0 -8.863992e-05 4.803177e-05
6395000000.0 -7.047063e-05 7.368097e-05
6396250000.0 -4.158973e-05 9.245843e-05
6397500000.0 -8.578628e-06 0.0001021196
6398750000.0 2.280062e-05 9.777486e-05
6400000000.0 5.793665e-05 8.246036e-05
6401250000.0 8.294611e-05 5.770012e-05
6402500000.0 9.646317e-05 2.799715e-05
6403750000.0 9.605895e-05 -8.030263e-06
6405000000.0 8.997991e-05 -4.464874e-05
6406250000.0 6.85015e-05 -6.93823e-05
6407500000.0 4.058419e-05 -9.333877e-05
6408750000.0 4.180368e-06 -9.780122e-05
6410000000.0 -3.564063e-05 -9.898451e-05
6411250000.0 -6.49036e-05 -8.090584e-05
6412500000.0 -9.179157e-05 -5.72533e-05
6413750000.0 -0.0001052597 -2.316366e-05
6415000000.0 -0.0001129192 1.560929e-05
6416250000.0 -0.0001024953 5.231003e-05
6417500000.0 -7.707093e-05 8.522338e-05
6418750000.0 -4.596175e-05 0.0001057841
6420000000.0 -1.043317e-05 0.0001132948
6421250000.0 2.519853e-05 0.0001121976
6422500000.0 6.173452e-05 9.374783e-05
6423750000.0 9.140738e-05 6.453117e-05
6425000000.0 0.0001055909 2.943735e-05
6426250000.0 0.000110795 -8.668194e-06
6427500000.0 9.74582e-05 -4.82187e-05
6428750000.0 7.447226e-05 -7.679372e-05
6430000000.0 3.958443e-05 -0.0001020879
6431250000.0 4.485596e-06 -0.0001100817
6432500000.0 -3.372883e-05 -0.0001065466
6433750000.0 -7.330871e-05 -8.597363e-05
6435000000.0 -9.865138e-05 -5.842695e-05
6436250000.0 -0.0001146677 -2.254839e-05
6437500000.0 -0.0001215889 1.819039e-05
6438750000.0 -0.000107972 5.433897e-05
6440000000.0 -8.505606e-05 8.388708e-05
6441250000.0 -5.269731e-05 0.0001103789
6442500000.0 -1.472285e-05 0.0001180324
6443750000.0 2.924799e-05 0.0001192075
6445000000.0 6.635251e-05 0.0001029106
6446250000.0 9.118886e-05 7.115515e-05
6447500000.0 0.0001092615 3.593012e-05
6448750000.0 0.0001117793 -2.932744e-06
6450000000.0 0.0001045319 -3.948086e-05
6451250000.0 8.499785e-05 -7.008895e-05
6452500000.0 4.762399e-05 -9.581684e-05
6453750000.0 1.067481e-05 -0.000110649
6455000000.0 -2.921021e-05 -0.0001102125
6456250000.0 -6.360946e-05 -9.383013e-05
6457500000.0 -9.523441e-05 -6.58697e-05
6458750000.0 -0.0001168844 -3.502917e-05
6460000000.0 -0.0001185641 6.045212e-06
6461250000.0 -0.000115084 4.057816e-05
6462500000.0 -9.618259e-05 8.207083e-05
6463750000.0 -6.697089e-05 0.0001072833
6465000000.0 -3.036645e-05 0.000119605
6466250000.0 8.32546e-06 0.0001196525
6467500000.0 5.00043e-05 0.0001071417
6468750000.0 7.857773e-05 8.482253e-05
6470000000.0 0.0001018822 5.015047e-05
6471250000.0 0.0001096851 9.761336e-06
6472500000.0 0.0001096163 -2.553842e-05
6473750000.0 8.975396e-05 -6.103784e-05
6475000000.0 5.775918e-05 -9.250944e-05
6476250000.0 2.470443e-05 -0.0001089604
6477500000.0 -1.457062e-05 -0.0001106848
6478750000.0 -5.18219e-05 -0.0001009612
6480000000.0 -8.374831e-05 -7.956123e-05
6481250000.0 -0.0001106555 -4.688424e-05
6482500000.0 -0.0001167528 -1.301375e-05
6483750000.0 -0.0001149382 2.625696e-05
6485000000.0 -0.00010189 6.050207e-05
6486250000.0 -7.818728e-05 9.389245e-05
6487500000.0 -4.511467e-05 0.0001110288
6488750000.0 -7.252016e-06 0.0001123133
6490000000.0 3.051836e-05 0.0001079302
6491250000.0 6.320739e-05 9.500903e-05
6492500000.0 8.823522e-05 6.078984e-05
6493750000.0 0.0001003985 2.674544e-05
6495000000.0 0.0001032892 -8.841361e-06
6496250000.0 9.145339e-05 -4.343861e-05
6497500000.0 6.847284e-05 -7.242043e-05
6498750000.0 3.989072e-05 -9.579923e-05
6500000000.0 7.862624e-06 -0.0001041121
6501250000.0 -2.866271e-05 -0.0001038784
6502500000.0 -6.578935e-05 -8.355435e-05
6503750000.0 -9.136676e-05 -6.260648e-05
6505000000.0 -0.0001090376 -3.077928e-05
6506250000.0 -0.0001097222 5.337904e-06
6507500000.0 -0.0001067277 3.90858e-05
6508750000.0 -8.293666e-05 7.154042e-05
6510000000.0 -5.946739e-05 9.288738e-05
6511250000.0 -2.579363e-05 0.0001070648
6512500000.0 8.943816e-06 0.0001062399
6513750000.0 4.389867e-05 9.689453e-05
6515000000.0 6.89191e-05 7.047016e-05
6516250000.0 9.090803e-05 3.99155e-05
6517500000.0 9.67474e-05 8.677707e-06
6518750000.0 9.002046e-05 -2.68708e-05
6520000000.0 7.278931e-05 -5.598214e-05
6521250000.0 4.71295e-05 -8.115496e-05
6522500000.0 1.914952e-05 -9.112672e-05
6523750000.0 -1.525494e-05 -9.768712e-05
6525000000.0 -5.119894e-05 -8.479344e-05
6526250000.0 -7.577637e-05 -6.966328e-05
6527500000.0 -9.673228e-05 -3.600612e-05
6528750000.0 -0.0001048011 -7.617637e-06
6530000000.0 -9.978213e-05 2.566713e-05
6531250000.0 -8.713877e-05 5.580844e-05
6532500000.0 -6.386184e-05 7.957351e-05
6533750000.0 -3.394299e-05 9.268337e-05
6535000000.0 -1.977686e-06 9.701494e-05
6536250000.0 2.61445e-05 9.031e-05
6537500000.0 5.546643e-05 7.057162e-05
6538750000.0 7.199435e-05 4.568466e-05
6540000000.0 8.097547e-05 1.414179e-05
6541250000.0 8.099602e-05 -1.445509e-05
6542500000.0 7.107065e-05 -4.900843e-05
6543750000.0 4.559367e-05 -6.784032e-05
6545000000.0 1.996208e-05 -8.554354e-05
6546250000.0 -8.762081e-06 -8.776327e-05
6547500000.0 -4.2721e-05 -8.399352e-05
6548750000.0 -6.724839e-05 -6.516291e-05
6550000000.0 -8.640083e-05 -4.258367e-05
6551250000.0 -9.505024e-05 -1.212482e-05
6552500000.0 -9.550996e-05 1.776358e-05
6553750000.0 -8.566486e-05 4.760107e-05
6555000000.0 -6.584119e-05 6.923995e-05
6556250000.0 -3.54017e-05 8.476387e-05
6557500000.0 -7.343397e-06 9.155029e-05
6558750000.0 2.053865e-05 8.478705e-05
6560000000.0 4.699111e-05 6.604025e-05
6561250000.0 6.723878e-05 4.433923e-05
6562500000.0 7.923991e-05 1.386046e-05
6563750000.0 7.454542e-05 -1.649674e-05
6565000000.0 6.361277e-05 -4.482229e-05
6566250000.0 4.618152e-05 -6.216516e-05
6567500000.0 1.635717e-05 -7.978635e-05
6568750000.0 -8.979245e-06 -8.131255e-05
6570000000.0 -3.861448e-05 -7.993111e-05
6571250000.0 -6.487486e-05 -6.423958e-05
6572500000.0 -8.329702e-05 -3.709215e-05
6573750000.0 -9.365538e-05 -1.117209e-05
6575000000.0 -8.935916e-05 2.019884e-05
6576250000.0 -7.970782e-05 4.40503e-05
6577500000.0 -6.021255e-05 6.706046e-05
6578750000.0 -3.623719e-05 7.927429e-05
6580000000.0 -6.457788e-06 8.690998e-05
6581250000.0 2.491406e-05 7.438688e-05
6582500000.0 5.367187e-05 6.121488e-05
6583750000.0 6.935546e-05 3.882371e-05
6585000000.0 8.014731e-05 6.563202e-06
6586250000.0 7.351078e-05 -2.364719e-05
6587500000.0 6.007475e-05 -5.045665e-05
6588750000.0 4.034953e-05 -7.17726e-05
6590000000.0 1.120825e-05 -8.187944e-05
6591250000.0 -1.346545e-05 -8.393949e-05
6592500000.0 -4.704649e-05 -7.712578e-05
6593750000.0 -6.860309e-05 -5.944534e-05
6595000000.0 -8.272423e-05 -4.03971e-05
6596250000.0 -9.234864e-05 -7.751203e-06
6597500000.0 -8.964812e-05 2.311215e-05
6598750000.0 -7.641184e-05 4.622695e-05
6600000000.0 -5.723936e-05 7.147878e-05
6601250000.0 -2.815346e-05 8.042045e-05
6602500000.0 3.423985e-06 8.431359e-05
6603750000.0 3.146092e-05 7.793714e-05
6605000000.0 5.588403e-05 6.160464e-05
6606250000.0 7.516029e-05 3.198794e-05
6607500000.0 8.45616e-05 1.581047e-06
6608750000.0 8.140346e-05 -2.70332e-05
6610000000.0 6.642413e-05 -5.698015e-05
6611250000.0 4.644868e-05 -7.674595e-05
6612500000.0 1.663573e-05 -9.235409e-05
6613750000.0 -1.384643e-05 -9.598065e-05
6615000000.0 -4.681861e-05 -8.665854e-05
6616250000.0 -7.203752e-05 -6.973317e-05
6617500000.0 -9.243932e-05 -4.551131e-05
6618750000.0 -9.892874e-05 -8.113328e-06
6620000000.0 -9.697164e-05 2.132652e-05
6621250000.0 -8.949186e-05 5.110778e-05
6622500000.0 -6.495195e-05 7.558628e-05
6623750000.0 -3.192224e-05 8.89812e-05
6625000000.0 -2.170965e-06 9.271158e-05
6626250000.0 3.532903e-05 8.346674e-05
6627500000.0 6.357017e-05 6.444906e-05
6628750000.0 8.295138e-05 3.676072e-05
6630000000.0 9.215907e-05 5.076957e-06
6631250000.0 9.193859e-05 -2.464402e-05
6632500000.0 8.017311e-05 -5.699485e-05
6633750000.0 5.691752e-05 -8.073862e-05
6635000000.0 2.726899e-05 -9.9891e-05
6636250000.0 -7.505015e-06 -0.0001058807
6637500000.0 -4.344854e-05 -9.796015e-05
6638750000.0 -7.148791e-05 -8.351341e-05
6640000000.0 -9.209325e-05 -5.609783e-05
6641250000.0 -0.0001085515 -2.57906e-05
6642500000.0 -0.0001116274 9.668624e-06
6643750000.0 -9.95694e-05 4.359012e-05
6645000000.0 -7.620777e-05 7.421667e-05
6646250000.0 -4.452161e-05 8.970321e-05
6647500000.0 -1.21718e-05 0.0001055247
6648750000.0 2.666662e-05 9.854307e-05
6650000000.0 5.893224e-05 8.492145e-05
6651250000.0 8.832739e-05 5.497664e-05
6652500000.0 0.0001049861 2.346573e-05
6653750000.0 0.0001102621 -1.844268e-05
6655000000.0 9.946392e-05 -5.184943e-05
6656250000.0 7.831027e-05 -8.842618e-05
6657500000.0 4.925015e-05 -0.0001105081
6658750000.0 1.007353e-05 -0.0001186314
6660000000.0 -3.049142e-05 -0.0001235345
6661250000.0 -6.840332e-05 -0.0001079026
6662500000.0 -9.845322e-05 -7.874786e-05
6663750000.0 -0.0001194142 -4.626306e-05
6665000000.0 -0.000122738 -4.014737e-06
6666250000.0 -0.0001178387 3.493319e-05
6667500000.0 -9.57389e-05 7.198351e-05
6668750000.0 -6.407161e-05 0.00010003
6670000000.0 -2.343242e-05 0.0001155609
6671250000.0 1.831986e-05 0.0001177184
6672500000.0 5.643046e-05 0.0001005485
6673750000.0 9.369426e-05 7.513092e-05
6675000000.0 0.0001192886 3.650215e-05
6676250000.0 0.0001282182 -7.444368e-06
6677500000.0 0.0001230343 -4.937583e-05
6678750000.0 9.914667e-05 -8.79057e-05
6680000000.0 6.678284e-05 -0.0001177962
6681250000.0 3.036118e-05 -0.0001314888
6682500000.0 -1.616817e-05 -0.0001326698
6683750000.0 -5.99085e-05 -0.0001244861
6685000000.0 -9.695902e-05 -9.704797e-05
6686250000.0 -0.0001182708 -6.055702e-05
6687500000.0 -0.0001278437 -1.451193e-05
6688750000.0 -0.0001243699 3.10986e-05
6690000000.0 -0.000107123 7.033996e-05
6691250000.0 -7.44545e-05 0.0001007655
6692500000.0 -3.038099e-05 0.0001156215
6693750000.0 1.70697e-05 0.0001202362
6695000000.0 5.682019e-05 0.0001117266
6696250000.0 9.465659e-05 7.908758e-05
6697500000.0 0.0001207168 4.275918e-05
6698750000.0 0.000129986 -3.155833e-07
6700000000.0 0.0001225848 -4.427019e-05
6701250000.0 0.0001016994 -8.293468e-05
6702500000.0 7.063072e-05 -0.0001106914
6703750000.0 3.246761e-05 -0.0001285928
6705000000.0 -9.895009e-06 -0.0001310531
6706250000.0 -5.125081e-05 -0.00011622
6707500000.0 -8.473053e-05 -9.685081e-05
6708750000.0 -0.000109684 -5.896974e-05
6710000000.0 -0.0001217361 -2.01511e-05
6711250000.0 -0.0001136855 1.966874e-05
6712500000.0 -9.795653e-05 5.752033e-05
6713750000.0 -7.039736e-05 8.806245e-05
6715000000.0 -3.012057e-05 0.0001053222
6716250000.0 7.96332e-06 0.00010505
6717500000.0 4.798022e-05 9.641096e-05
6718750000.0 7.92649e-05 7.755055e-05
6720000000.0 0.0001041234 4.595665e-05
6721250000.0 0.0001143851 7.612291e-06
6722500000.0 0.0001106607 -2.539127e-05
6723750000.0 9.644747e-05 -6.154728e-05
6725000000.0 7.279843e-05 -9.327046e-05
6726250000.0 3.89314e-05 -0.0001071173
6727500000.0 4.124797e-06 -0.0001146107
6728750000.0 -2.75943e-05 -0.0001071068
6730000000.0 -6.033123e-05 -9.01341e-05
6731250000.0 -7.9015e-05 -6.097294e-05
6732500000.0 -9.246607e-05 -2.79252e-05
6733750000.0 -9.620435e-05 7.907848e-06
6735000000.0 -8.006611e-05 3.688669e-05
6736250000.0 -5.896969e-05 6.762357e-05
6737500000.0 -3.049789e-05 8.172409e-05
6738750000.0 4.415098e-07 8.730053e-05
6740000000.0 3.101617e-05 8.52166e-05
6741250000.0 6.103048e-05 7.090436e-05
6742500000.0 8.218546e-05 4.910741e-05
6743750000.0 9.388002e-05 1.820481e-05
6745000000.0 9.455506e-05 -1.276957e-05
6746250000.0 8.885618e-05 -4.255134e-05
6747500000.0 7.189551e-05 -6.415053e-05
6748750000.0 4.693456e-05 -8.571821e-05
6750000000.0 1.919043e-05 -9.530233e-05
