! Created with skrf 1.10.0 (http://scikit-rf.org).
# Hz S RI R 50.0 
!freq ReS11 ImS11
!
6250000000.0 7.581397e-06 2.444964e-06
6251250000.0 1.17223e-05 -2.350485e-06
6252500000.0 9.076183e-06 -3.698392e-06
6253750000.0 7.304847e-06 -6.347994e-06
6255000000.0 1.005508e-05 -1.294571e-05
6256250000.0 1.188491e-06 -1.580452e-05
6257500000.0 4.624453e-06 -1.361077e-05
6258750000.0 -5.931649e-06 -1.107946e-05
6260000000.0 -7.197692e-06 -1.129894e-05
6261250000.0 -1.041409e-05 -9.463569e-06
6262500000.0 -1.080368e-05 -6.792977e-06
6263750000.0 -1.350127e-05 -6.731129e-06
6265000000.0 -1.032528e-05 5.942316e-08
6266250000.0 -4.697434e-06 4.691846e-06
6267500000.0 -7.532401e-06 1.034058e-05
6268750000.0 1.169982e-06 1.103473e-05
6270000000.0 5.213119e-06 5.321214e-06
6271250000.0 7.952374e-06 4.107116e-06
6272500000.0 1.083091e-05 1.380559e-06
6273750000.0 8.355331e-06 -2.759785e-07
6275000000.0 8.926966e-06 -6.14783e-06
6276250000.0 7.482832e-06 -9.805839e-06
6277500000.0 6.122604e-06 -1.289285e-05
6278750000.0 -3.502896e-07 -1.629696e-05
6280000000.0 -5.344942e-06 -1.106125e-05
6281250000.0 -7.615076e-06 -1.285603e-05
6282500000.0 -1.470049e-05 -8.596322e-06
6283750000.0 -1.825386e-05 -4.003606e-06
6285000000.0 -1.611559e-05 -3.422315e-06
6286250000.0 -1.455162e-05 4.47433e-06
6287500000.0 -1.134799e-05 1.341165e-05
6288750000.0 -1.00159e-05 1.323273e-05
6290000000.0 -2.542464e-06 1.345431e-05
6291250000.0 3.153477e-06 1.23427e-05
6292500000.0 8.277277e-06 9.332125e-06
6293750000.0 9.470439e-06 9.414789e-06
6295000000.0 1.276595e-05 2.145125e-06
6296250000.0 1.508116e-05 -2.273034e-06
6297500000.0 1.523232e-05 -9.980707e-06
6298750000.0 1.197851e-05 -1.404367e-05
6300000000.0 7.138842e-06 -1.851326e-05
6301250000.0 -1.319538e-06 -2.068325e-05
6302500000.0 -8.128721e-06 -1.989899e-05
6303750000.0 -1.231566e-05 -1.94442e-05
6305000000.0 -1.634881e-05 -1.191712e-05
6306250000.0 -1.969041e-05 -6.45457e-06
6307500000.0 -2.121591e-05 -7.226456e-07
6308750000.0 -2.339412e-05 7.171044e-06
6310000000.0 -2.002786e-05 1.12032e-05
6311250000.0 -1.643209e-05 1.708661e-05
6312500000.0 -9.751589e-06 1.914888e-05
6313750000.0 -1.669137e-07 2.263151e-05
6315000000.0 3.595395e-06 1.806096e-05
6316250000.0 1.282669e-05 1.288311e-05
6317500000.0 1.866079e-05 1.009532e-05
6318750000.0 1.785164e-05 4.244527e-06
6320000000.0 2.027945e-05 -3.236775e-06
6321250000.0 1.958466e-05 -1.192803e-05
6322500000.0 1.41145e-05 -1.577595e-05
6323750000.0 6.383921e-06 -2.44877e-05
6325000000.0 -2.838618e-06 -2.452506e-05
6326250000.0 -9.705054e-06 -2.303326e-05
6327500000.0 -1.676197e-05 -2.305932e-05
6328750000.0 -2.651902e-05 -1.180554e-05
6330000000.0 -3.174256e-05 -7.325646e-06
6331250000.0 -2.631158e-05 -1.315633e-06
6332500000.0 -2.59545e-05 8.60601e-06
6333750000.0 -2.147642e-05 2.284571e-05
6335000000.0 -1.414266e-05 2.569806e-05
6336250000.0 -1.007329e-05 2.777185e-05
6337500000.0 -1.001065e-06 2.692165e-05
6338750000.0 8.439769e-06 2.553498e-05
6340000000.0 1.646901e-05 1.923955e-05
6341250000.0 2.031228e-05 9.354621e-06
6342500000.0 2.346267e-05 3.196541e-06
6343750000.0 2.001385e-05 -2.78046e-06
6345000000.0 2.005863e-05 -1.414977e-05
6346250000.0 1.588756e-05 -2.264389e-05
6347500000.0 4.663849e-06 -2.188457e-05
6348750000.0 -3.959117e-06 -2.476837e-05
6350000000.0 -7.668015e-06 -2.56466e-05
6351250000.0 -1.785043e-05 -2.18638e-05
6352500000.0 -2.515442e-05 -1.486031e-05
6353750000.0 -2.676107e-05 -7.706502e-06
6355000000.0 -3.076381e-05 3.182193e-06
6356250000.0 -3.009089e-05 1.084225e-05
6357500000.0 -2.319696e-05 1.900832e-05
6358750000.0 -1.628685e-05 2.555121e-05
6360000000.0 -6.151784e-06 2.260621e-05
6361250000.0 2.313047e-06 2.621984e-05
6362500000.0 9.067194e-06 2.545929e-05
6363750000.0 1.505142e-05 2.239946e-05
6365000000.0 2.330942e-05 1.275503e-05
6366250000.0 2.270528e-05 4.436998e-06
6367500000.0 2.183521e-05 -5.477998e-06
6368750000.0 1.937049e-05 -1.744748e-05
6370000000.0 1.562289e-05 -2.067173e-05
6371250000.0 6.895616e-06 -1.951866e-05
6372500000.0 -1.196124e-06 -2.436637e-05
6373750000.0 -7.102671e-06 -2.213867e-05
6375000000.0 -1.737373e-05 -1.734249e-05
6376250000.0 -2.023942e-05 -1.506811e-05
6377500000.0 -2.762507e-05 -2.783281e-06
6378750000.0 -2.506518e-05 -3.244246e-07
6380000000.0 -2.069391e-05 1.012697e-05
6381250000.0 -2.064581e-05 1.601615e-05
6382500000.0 -1.553303e-05 2.448103e-05
6383750000.0 -8.815951e-06 2.105341e-05
6385000000.0 4.326762e-06 2.279927e-05
6386250000.0 7.164905e-06 2.100115e-05
6387500000.0 1.684074e-05 1.631885e-05
6388750000.0 1.854966e-05 1.19095e-05
6390000000.0 2.262679e-05 4.0168e-06
6391250000.0 1.705269e-05 -1.261245e-06
6392500000.0 1.664739e-05 -1.0848e-05
6393750000.0 9.332482e-06 -1.417643e-05
6395000000.0 2.914633e-06 -1.703459e-05
6396250000.0 -1.106161e-06 -1.884927e-05
6397500000.0 -8.44671e-06 -1.5412e-05
6398750000.0 -1.247374e-05 -1.324412e-05
6400000000.0 -1.994772e-05 -4.644239e-06
6401250000.0 -2.128745e-05 -2.823483e-07
6402500000.0 -1.853143e-05 3.104284e-06
6403750000.0 -1.655481e-05 1.015655e-05
6405000000.0 -1.481929e-05 1.559754e-05
6406250000.0 -1.09492e-05 1.941514e-05
6407500000.0 -5.005185e-06 2.134614e-05
6408750000.0 1.508851e-06 1.805742e-05
6410000000.0 5.170913e-06 1.706709e-05
6411250000.0 1.025502e-05 1.245028e-05
6412500000.0 1.079196e-05 8.813917e-06
6413750000.0 1.11787e-05 5.058847e-06
6415000000.0 8.831539e-06 6.741327e-07
6416250000.0 8.956415e-06 -6.880806e-06
6417500000.0 1.824717e-06 -8.720433e-06
6418750000.0 -4.367339e-09 -9.995575e-06
6420000000.0 -3.749029e-06 -9.775895e-06
6421250000.0 -8.530957e-06 -9.116337e-06
6422500000.0 -1.038229e-05 -3.530272e-06
6423750000.0 -1.245652e-05 2.277509e-07
6425000000.0 -1.631282e-05 7.351094e-06
6426250000.0 -1.233043e-05 8.848065e-06
6427500000.0 -1.059679e-05 9.725846e-06
6428750000.0 -7.11625e-06 1.540229e-05
6430000000.0 -5.650994e-06 1.405396e-05
6431250000.0 9.969752e-07 1.762919e-05
6432500000.0 1.874621e-06 1.067884e-05
6433750000.0 5.108951e-06 8.604767e-06
6435000000.0 4.855966e-06 7.846075e-06
6436250000.0 5.586633e-06 2.598407e-06
6437500000.0 3.166456e-06 2.637169e-06
6438750000.0 2.644128e-06 -2.673677e-06
6440000000.0 2.088465e-06 -1.493523e-06
6441250000.0 -1.683729e-06 -1.256516e-06
6442500000.0 -3.236684e-06 3.906453e-06
6443750000.0 -7.40726e-06 -2.742967e-06
6445000000.0 -9.354368e-06 4.260989e-06
6446250000.0 -1.152999e-05 8.339563e-06
6447500000.0 -9.026803e-06 6.059094e-06
6448750000.0 -9.222532e-06 1.272386e-05
6450000000.0 -4.940113e-06 1.351251e-05
6451250000.0 -3.815463e-06 1.312543e-05
6452500000.0 -4.355696e-07 1.137839e-05
6453750000.0 5.621249e-06 9.20884e-06
6455000000.0 5.322132e-06 8.3652e-06
6456250000.0 4.525344e-06 4.73368e-06
6457500000.0 3.619747e-06 1.38788e-06
6458750000.0 -1.332701e-07 -2.565789e-07
6460000000.0 -3.519616e-06 -4.666463e-06
6461250000.0 -6.309026e-06 -2.882095e-06
6462500000.0 -7.826634e-06 -5.360592e-06
6463750000.0 -1.400155e-05 -1.544444e-06
6465000000.0 -1.260416e-05 -2.593094e-06
6466250000.0 -1.417298e-05 6.047193e-06
6467500000.0 -1.692652e-05 8.430845e-06
6468750000.0 -1.479052e-05 1.492795e-05
6470000000.0 -1.250483e-05 1.611183e-05
6471250000.0 -8.465062e-06 1.487566e-05
6472500000.0 4.346901e-07 1.982532e-05
6473750000.0 3.778433e-06 1.807867e-05
6475000000.0 4.201785e-06 1.25268e-05
6476250000.0 6.73155e-06 9.862139e-06
6477500000.0 1.072458e-05 6.982752e-06
6478750000.0 9.421447e-06 1.726362e-06
6480000000.0 1.003582e-05 -9.664667e-06
6481250000.0 1.737394e-06 -1.254228e-05
6482500000.0 -2.547534e-06 -1.066499e-05
6483750000.0 -7.063707e-06 -1.264628e-05
6485000000.0 -1.082744e-05 -9.416167e-06
6486250000.0 -2.144397e-05 -8.52042e-06
6487500000.0 -2.871385e-05 -2.155701e-07
6488750000.0 -2.632314e-05 4.60529e-06
6490000000.0 -2.605836e-05 1.19257e-05
6491250000.0 -2.10837e-05 1.882278e-05
6492500000.0 -2.280758e-05 2.085797e-05
6493750000.0 -1.304721e-05 2.493194e-05
6495000000.0 -5.765507e-06 2.349322e-05
6496250000.0 1.494906e-06 2.60936e-05
6497500000.0 1.220072e-05 1.316152e-05
6498750000.0 1.061567e-05 1.464688e-05
6500000000.0 1.535638e-05 7.490503e-06
6501250000.0 1.769729e-05 -1.450325e-06
6502500000.0 1.423854e-05 -1.10025e-05
6503750000.0 8.369009e-06 -1.023734e-05
6505000000.0 5.350395e-06 -1.92918e-05
6506250000.0 -4.830609e-06 -1.879695e-05
6507500000.0 -1.334782e-05 -2.250636e-05
6508750000.0 -2.19849e-05 -1.773176e-05
6510000000.0 -3.013466e-05 -1.527499e-05
6511250000.0 -3.397305e-05 -5.578888e-06
6512500000.0 -3.658999e-05 1.987829e-07
6513750000.0 -3.692229e-05 1.290008e-05
6515000000.0 -3.203854e-05 2.025136e-05
6516250000.0 -2.529888e-05 2.57578e-05
6517500000.0 -1.393619e-05 3.242863e-05
6518750000.0 -6.77023e-06 3.32827e-05
6520000000.0 1.086051e-06 3.082398e-05
6521250000.0 1.163882e-05 2.420116e-05
6522500000.0 1.704008e-05 1.974262e-05
6523750000.0 1.834104e-05 7.43204e-06
6525000000.0 2.643249e-05 2.145564e-06
6526250000.0 2.061798e-05 -1.334926e-05
6527500000.0 1.388653e-05 -1.894891e-05
6528750000.0 6.019753e-06 -2.678017e-05
6530000000.0 -5.00776e-06 -2.676595e-05
6531250000.0 -1.475511e-05 -3.018472e-05
6532500000.0 -2.327553e-05 -2.623942e-05
6533750000.0 -3.277032e-05 -2.043094e-05
6535000000.0 -3.836412e-05 -1.030596e-05
6536250000.0 -4.188391e-05 1.480795e-06
6537500000.0 -4.192891e-05 1.30091e-05
6538750000.0 -3.854544e-05 2.019175e-05
6540000000.0 -2.750646e-05 2.954147e-05
6541250000.0 -2.054613e-05 3.128641e-05
6542500000.0 -8.739388e-06 3.881474e-05
6543750000.0 5.419859e-06 3.181565e-05
6545000000.0 1.698178e-05 2.874331e-05
6546250000.0 2.241447e-05 1.77487e-05
6547500000.0 2.501671e-05 6.636856e-06
6548750000.0 2.53591e-05 1.131104e-06
6550000000.0 2.26977e-05 -1.415577e-05
6551250000.0 1.421024e-05 -2.315074e-05
6552500000.0 7.198186e-06 -3.007332e-05
6553750000.0 -2.135066e-06 -3.314896e-05
6555000000.0 -1.427787e-05 -3.423156e-05
6556250000.0 -2.74122e-05 -2.83938e-05
6557500000.0 -3.588233e-05 -2.072559e-05
6558750000.0 -4.153397e-05 -1.381825e-05
6560000000.0 -4.492404e-05 -1.284733e-06
6561250000.0 -4.337657e-05 1.276783e-05
6562500000.0 -3.670992e-05 1.914834e-05
6563750000.0 -2.958588e-05 2.79808e-05
6565000000.0 -1.906285e-05 3.278266e-05
6566250000.0 -7.950945e-06 3.378623e-05
6567500000.0 -3.292089e-08 3.234579e-05
6568750000.0 1.156105e-05 3.118646e-05
6570000000.0 2.498731e-05 1.992045e-05
6571250000.0 2.426199e-05 1.111234e-05
6572500000.0 2.727875e-05 -3.432772e-07
6573750000.0 2.349764e-05 -1.114666e-05
6575000000.0 2.188538e-05 -2.203609e-05
6576250000.0 7.966927e-06 -3.182544e-05
6577500000.0 -3.172199e-06 -3.176901e-05
6578750000.0 -1.114371e-05 -3.121098e-05
6580000000.0 -2.195302e-05 -3.016239e-05
6581250000.0 -3.077864e-05 -2.119348e-05
6582500000.0 -3.785617e-05 -1.587079e-05
6583750000.0 -4.171285e-05 -1.899019e-06
6585000000.0 -3.85959e-05 9.659857e-06
6586250000.0 -3.516002e-05 1.622376e-05
6587500000.0 -2.72647e-05 2.572033e-05
6588750000.0 -2.151469e-05 3.035431e-05
6590000000.0 -1.094536e-05 3.087644e-05
6591250000.0 -9.741833e-07 2.740868e-05
6592500000.0 9.955276e-06 2.256153e-05
6593750000.0 1.692105e-05 1.899885e-05
6595000000.0 2.39122e-05 7.224151e-06
6596250000.0 2.034618e-05 -4.670943e-07
6597500000.0 2.240406e-05 -1.071577e-05
6598750000.0 1.749094e-05 -1.901784e-05
6600000000.0 8.061626e-06 -2.598542e-05
6601250000.0 -5.913388e-07 -3.059814e-05
6602500000.0 -8.675847e-06 -3.196976e-05
6603750000.0 -1.589877e-05 -2.763609e-05
6605000000.0 -2.307831e-05 -2.02307e-05
6606250000.0 -3.298842e-05 -1.37013e-05
6607500000.0 -3.197063e-05 -3.166836e-06
6608750000.0 -3.404317e-05 7.287854e-07
6610000000.0 -2.905235e-05 1.157122e-05
6611250000.0 -2.170678e-05 1.541661e-05
6612500000.0 -1.392498e-05 2.089803e-05
6613750000.0 -9.435508e-06 1.982541e-05
6615000000.0 5.585217e-07 1.821456e-05
6616250000.0 6.520136e-06 1.641202e-05
6617500000.0 1.02047e-05 5.583333e-06
6618750000.0 1.584978e-05 1.218299e-06
6620000000.0 1.169472e-05 -3.628091e-06
6621250000.0 1.231494e-05 -1.275574e-05
6622500000.0 9.819724e-06 -1.665061e-05
6623750000.0 2.051225e-06 -2.367079e-05
6625000000.0 5.843725e-07 -2.063583e-05
6626250000.0 -1.135157e-05 -2.284053e-05
6627500000.0 -1.673717e-05 -1.899218e-05
6628750000.0 -1.648552e-05 -1.474688e-05
6630000000.0 -1.674582e-05 -8.763453e-06
6631250000.0 -2.08898e-05 -7.40311e-06
6632500000.0 -2.042335e-05 1.818251e-06
6633750000.0 -1.780472e-05 1.61909e-06
6635000000.0 -1.332964e-05 7.293023e-06
6636250000.0 -8.121672e-06 7.175694e-06
6637500000.0 -4.34275e-06 6.489859e-06
6638750000.0 -1.398108e-06 6.537448e-06
6640000000.0 4.060062e-06 6.211669e-07
6641250000.0 3.489943e-06 2.013171e-06
6642500000.0 5.916233e-06 -1.848464e-06
6643750000.0 3.762883e-06 -3.570011e-06
6645000000.0 5.595438e-06 -1.063692e-05
6646250000.0 -2.954734e-06 -1.263702e-05
6647500000.0 -4.485408e-06 -1.118041e-05
6648750000.0 -3.623662e-06 -1.46079e-05
6650000000.0 -8.514516e-06 -1.232071e-05
6651250000.0 -8.95519e-06 -1.064253e-05
6652500000.0 -1.060992e-05 -7.725177e-06
6653750000.0 -7.787394e-06 -8.081523e-06
6655000000.0 -7.247741e-06 -5.012751e-06
6656250000.0 -7.901091e-06 -4.038826e-06
6657500000.0 -1.278448e-06 2.225568e-07
6658750000.0 -1.623442e-06 1.258655e-06
6660000000.0 -3.00745e-06 -4.553321e-07
6661250000.0 1.738869e-06 -4.816252e-06
6662500000.0 -1.348889e-06 -6.641021e-06
6663750000.0 4.373074e-06 -7.309855e-06
6665000000.0 1.677602e-06 -9.835305e-06
6666250000.0 -1.353176e-06 -1.123571e-05
6667500000.0 -6.795581e-06 -9.485022e-06
6668750000.0 -5.205674e-06 -1.394659e-05
6670000000.0 -7.763135e-06 -9.583989e-06
6671250000.0 -5.989689e-06 -7.541354e-06
6672500000.0 -7.60984e-06 -2.967967e-06
6673750000.0 -8.67976e-06 1.468295e-06
6675000000.0 -3.509604e-06 -1.269034e-06
6676250000.0 -1.038583e-06 1.689199e-06
6677500000.0 5.502374e-06 1.680304e-06
6678750000.0 2.327057e-06 2.727429e-06
6680000000.0 4.195154e-06 -2.613849e-06
6681250000.0 1.110042e-05 -6.049588e-06
6682500000.0 1.019154e-05 -8.399348e-06
6683750000.0 1.075334e-05 -1.009294e-05
6685000000.0 3.51823e-06 -1.929661e-05
6686250000.0 4.625828e-06 -2.122995e-05
6687500000.0 -5.912778e-08 -2.171968e-05
6688750000.0 -5.087546e-06 -2.15557e-05
6690000000.0 -8.452555e-06 -1.988445e-05
6691250000.0 -1.371272e-05 -1.481674e-05
6692500000.0 -1.246464e-05 -1.083952e-05
6693750000.0 -1.541899e-05 -4.927248e-06
6695000000.0 -1.225501e-05 1.212247e-06
6696250000.0 -9.760458e-06 3.135317e-06
6697500000.0 -7.551886e-06 8.228716e-06
6698750000.0 -2.040601e-06 8.739122e-06
6700000000.0 1.816745e-06 1.170738e-05
6701250000.0 1.066e-05 7.162914e-06
6702500000.0 1.48065e-05 6.064491e-06
6703750000.0 1.895898e-05 2.429566e-07
6705000000.0 2.384417e-05 -1.085634e-05
6706250000.0 1.845925e-05 -1.135053e-05
6707500000.0 2.104865e-05 -1.932599e-05
6708750000.0 1.484871e-05 -2.191316e-05
6710000000.0 6.832871e-06 -2.836494e-05
6711250000.0 2.88445e-06 -2.913271e-05
6712500000.0 -8.674561e-06 -3.136008e-05
6713750000.0 -1.429785e-05 -2.353841e-05
6715000000.0 -1.855643e-05 -1.797479e-05
6716250000.0 -2.116395e-05 -1.057258e-05
6717500000.0 -2.182807e-05 -4.621337e-06
6718750000.0 -1.855555e-05 3.882293e-06
6720000000.0 -1.443374e-05 1.213222e-05
6721250000.0 -3.993671e-06 1.9329e-05
6722500000.0 4.112961e-06 2.170067e-05
6723750000.0 9.699611e-06 2.076183e-05
6725000000.0 1.749504e-05 1.467102e-05
6726250000.0 2.83746e-05 7.063735e-06
6727500000.0 3.299792e-05 1.345029e-06
6728750000.0 3.330194e-05 -5.72689e-06
6730000000.0 3.380948e-05 -1.516851e-05
6731250000.0 2.906643e-05 -2.402704e-05
6732500000.0 2.147501e-05 -3.217259e-05
6733750000.0 1.21848e-05 -3.421391e-05
6735000000.0 3.715585e-06 -3.846215e-05
6736250000.0 -7.990545e-06 -3.518429e-05
6737500000.0 -1.553377e-05 -2.633934e-05
6738750000.0 -2.406971e-05 -2.291974e-05
6740000000.0 -2.385692e-05 -1.106583e-05
6741250000.0 -2.394941e-05 9.338393e-07
6742500000.0 -2.324702e-05 1.288995e-05
6743750000.0 -1.442563e-05 1.947569e-05
6745000000.0 -2.43402e-06 2.222586e-05
6746250000.0 3.333343e-06 2.638041e-05
6747500000.0 1.644905e-05 2.495269e-05
6748750000.0 2.307729e-05 2.013006e-05
6750000000.0 3.569256e-05 1.365097e-05
